Time Stamp,ID,Extended,Dir,Bus,LEN,D1,D2,D3,D4,D5,D6,D7,D8
83499041,15FD0816,true,Rx,0,8,01,01,04,6B,8F,FF,FF,FF,
83499539,15FD0716,true,Rx,0,8,01,C4,CF,8F,FF,7F,FF,FF,
83510323,15FD0616,true,Rx,0,8,01,C1,70,FF,FF,FF,FF,FF,
85999950,15FD0816,true,Rx,0,8,01,01,04,33,90,FF,FF,FF,
86000491,15FD0716,true,Rx,0,8,01,C4,97,90,FF,7F,FF,FF,
86011252,15FD0616,true,Rx,0,8,01,C1,70,FF,FF,FF,FF,FF,
88500846,15FD0816,true,Rx,0,8,01,01,04,FB,90,FF,FF,FF,
88501377,15FD0716,true,Rx,0,8,01,C4,5F,91,FF,7F,FF,FF,
88512109,15FD0616,true,Rx,0,8,01,C1,70,FF,FF,FF,FF,FF,
91001708,15FD0816,true,Rx,0,8,01,01,04,C3,91,FF,FF,FF,
91002256,15FD0716,true,Rx,0,8,01,C4,27,92,FF,7F,FF,FF,
91013079,15FD0616,true,Rx,0,8,01,C1,70,FF,FF,FF,FF,FF,
93502650,15FD0816,true,Rx,0,8,01,01,04,8B,92,FF,FF,FF,
93503186,15FD0716,true,Rx,0,8,01,C4,EF,92,FF,7F,FF,FF,
93513998,15FD0616,true,Rx,0,8,01,C1,70,FF,FF,FF,FF,FF,
96003521,15FD0816,true,Rx,0,8,01,01,04,53,93,FF,FF,FF,
96004098,15FD0716,true,Rx,0,8,01,C4,B7,93,FF,7F,FF,FF,
96014918,15FD0616,true,Rx,0,8,01,C1,70,FF,FF,FF,FF,FF,
98504421,15FD0816,true,Rx,0,8,01,01,04,1B,94,FF,FF,FF,
98505021,15FD0716,true,Rx,0,8,01,C4,7F,94,FF,7F,FF,FF,
98515734,15FD0616,true,Rx,0,8,01,C1,70,FF,FF,FF,FF,FF,
101005318,15FD0816,true,Rx,0,8,01,01,04,E3,94,FF,FF,FF,
101005936,15FD0716,true,Rx,0,8,01,C4,47,95,FF,7F,FF,FF,
101016662,15FD0616,true,Rx,0,8,01,C1,70,FF,FF,FF,FF,FF,
103506184,15FD0816,true,Rx,0,8,01,01,04,AB,95,FF,FF,FF,
103506786,15FD0716,true,Rx,0,8,01,C4,0F,96,FF,7F,FF,FF,
103517560,15FD0616,true,Rx,0,8,01,C1,70,FF,FF,FF,FF,FF,
106007173,15FD0816,true,Rx,0,8,01,01,04,73,96,FF,FF,FF,
106007718,15FD0716,true,Rx,0,8,01,C4,D7,96,FF,7F,FF,FF,
106018502,15FD0616,true,Rx,0,8,01,C1,70,FF,FF,FF,FF,FF,
108508090,15FD0816,true,Rx,0,8,01,01,04,3B,97,FF,FF,FF,
108508584,15FD0716,true,Rx,0,8,01,C4,9F,97,FF,7F,FF,FF,
108519359,15FD0616,true,Rx,0,8,01,C1,70,FF,FF,FF,FF,FF,
111009013,15FD0816,true,Rx,0,8,01,01,04,03,98,FF,FF,FF,
111009517,15FD0716,true,Rx,0,8,01,C4,67,98,FF,7F,FF,FF,
111020275,15FD0616,true,Rx,0,8,01,C1,70,FF,FF,FF,FF,FF,
113509878,15FD0816,true,Rx,0,8,01,01,04,CB,98,FF,FF,FF,
113510415,15FD0716,true,Rx,0,8,01,C4,2F,99,FF,7F,FF,FF,
113521212,15FD0616,true,Rx,0,8,01,C1,70,FF,FF,FF,FF,FF,
116010731,15FD0816,true,Rx,0,8,01,01,04,93,99,FF,FF,FF,
116011301,15FD0716,true,Rx,0,8,01,C4,F7,99,FF,7F,FF,FF,
116022110,15FD0616,true,Rx,0,8,01,C1,70,FF,FF,FF,FF,FF,
118511623,15FD0816,true,Rx,0,8,01,01,04,5B,9A,FF,FF,FF,
118512200,15FD0716,true,Rx,0,8,01,C4,BF,9A,FF,7F,FF,FF,
118522996,15FD0616,true,Rx,0,8,01,C1,70,FF,FF,FF,FF,FF,
121012567,15FD0816,true,Rx,0,8,01,01,04,23,9B,FF,FF,FF,
121013162,15FD0716,true,Rx,0,8,01,C4,87,9B,FF,7F,FF,FF,
121023879,15FD0616,true,Rx,0,8,01,C1,70,FF,FF,FF,FF,FF,
123513432,15FD0816,true,Rx,0,8,01,01,04,EB,9B,FF,FF,FF,
123514037,15FD0716,true,Rx,0,8,01,C4,4F,9C,FF,7F,FF,FF,
123524844,15FD0616,true,Rx,0,8,01,C1,70,FF,FF,FF,FF,FF,
123573424,1DF01116,true,Rx,0,8,60,EA,00,FF,FF,FF,FF,FF,
126014339,15FD0816,true,Rx,0,8,01,01,04,B3,9C,FF,FF,FF,
126014929,15FD0716,true,Rx,0,8,01,C4,17,9D,FF,7F,FF,FF,
126025674,15FD0616,true,Rx,0,8,01,C1,70,FF,FF,FF,FF,FF,
128515254,15FD0816,true,Rx,0,8,01,01,04,7B,9D,FF,FF,FF,
128515813,15FD0716,true,Rx,0,8,01,C4,DF,9D,FF,7F,FF,FF,
128526597,15FD0616,true,Rx,0,8,01,C1,70,FF,FF,FF,FF,FF,
131016192,15FD0816,true,Rx,0,8,01,01,04,43,9E,FF,FF,FF,
131016723,15FD0716,true,Rx,0,8,01,C4,A7,9E,FF,7F,FF,FF,
131027512,15FD0616,true,Rx,0,8,01,C1,70,FF,FF,FF,FF,FF,
133517087,15FD0816,true,Rx,0,8,01,01,04,0B,9F,FF,FF,FF,
133517618,15FD0716,true,Rx,0,8,01,C4,6F,9F,FF,7F,FF,FF,
133528386,15FD0616,true,Rx,0,8,01,C1,70,FF,FF,FF,FF,FF,
136017995,15FD0816,true,Rx,0,8,01,01,04,D3,9F,FF,FF,FF,
136018519,15FD0716,true,Rx,0,8,01,C4,37,A0,FF,7F,FF,FF,
136029299,15FD0616,true,Rx,0,8,01,C1,70,FF,FF,FF,FF,FF,
138518912,15FD0816,true,Rx,0,8,01,01,04,9B,A0,FF,FF,FF,
138519460,15FD0716,true,Rx,0,8,01,C4,FF,A0,FF,7F,FF,FF,
138530265,15FD0616,true,Rx,0,8,01,C1,70,FF,FF,FF,FF,FF,
141019785,15FD0816,true,Rx,0,8,01,01,04,63,A1,FF,FF,FF,
141020365,15FD0716,true,Rx,0,8,01,C4,C7,A1,FF,7F,FF,FF,
141031161,15FD0616,true,Rx,0,8,01,C1,70,FF,FF,FF,FF,FF,
143520736,15FD0816,true,Rx,0,8,01,01,04,2B,A2,FF,FF,FF,
143521280,15FD0716,true,Rx,0,8,01,C4,8F,A2,FF,7F,FF,FF,
143532013,15FD0616,true,Rx,0,8,01,C1,70,FF,FF,FF,FF,FF,
146021634,15FD0816,true,Rx,0,8,01,01,04,F3,A2,FF,FF,FF,
146022181,15FD0716,true,Rx,0,8,01,C4,57,A3,FF,7F,FF,FF,
146032946,15FD0616,true,Rx,0,8,01,C1,70,FF,FF,FF,FF,FF,
148522483,15FD0816,true,Rx,0,8,01,01,04,BB,A3,FF,FF,FF,
148523032,15FD0716,true,Rx,0,8,01,C4,1F,A4,FF,7F,FF,FF,
148533842,15FD0616,true,Rx,0,8,01,C1,70,FF,FF,FF,FF,FF,
151023404,15FD0816,true,Rx,0,8,01,01,04,83,A4,FF,FF,FF,
151023993,15FD0716,true,Rx,0,8,01,C4,E7,A4,FF,7F,FF,FF,
151034717,15FD0616,true,Rx,0,8,01,C1,70,FF,FF,FF,FF,FF,
153524335,15FD0816,true,Rx,0,8,01,01,04,4B,A5,FF,FF,FF,
153524893,15FD0716,true,Rx,0,8,01,C4,AF,A5,FF,7F,FF,FF,
153535628,15FD0616,true,Rx,0,8,01,C1,70,FF,FF,FF,FF,FF,
156025262,15FD0816,true,Rx,0,8,01,01,04,13,A6,FF,FF,FF,
156025798,15FD0716,true,Rx,0,8,01,C4,77,A6,FF,7F,FF,FF,
156036540,15FD0616,true,Rx,0,8,01,C1,70,FF,FF,FF,FF,FF,
158526140,15FD0816,true,Rx,0,8,01,01,04,DB,A6,FF,FF,FF,
158526718,15FD0716,true,Rx,0,8,01,C4,3F,A7,FF,7F,FF,FF,
158537497,15FD0616,true,Rx,0,8,01,C1,70,FF,FF,FF,FF,FF,
161027036,15FD0816,true,Rx,0,8,01,01,04,A3,A7,FF,FF,FF,
161027577,15FD0716,true,Rx,0,8,01,C4,07,A8,FF,7F,FF,FF,
161038395,15FD0616,true,Rx,0,8,01,C1,70,FF,FF,FF,FF,FF,
163527931,15FD0816,true,Rx,0,8,01,01,04,6B,A8,FF,FF,FF,
163528477,15FD0716,true,Rx,0,8,01,C4,CF,A8,FF,7F,FF,FF,
163539298,15FD0616,true,Rx,0,8,01,C1,70,FF,FF,FF,FF,FF,
166028835,15FD0816,true,Rx,0,8,01,01,04,33,A9,FF,FF,FF,
166029446,15FD0716,true,Rx,0,8,01,C4,97,A9,FF,7F,FF,FF,
166040136,15FD0616,true,Rx,0,8,01,C1,70,FF,FF,FF,FF,FF,
168529757,15FD0816,true,Rx,0,8,01,01,04,FB,A9,FF,FF,FF,
168530432,15FD0716,true,Rx,0,8,01,C4,5F,AA,FF,7F,FF,FF,
168541082,15FD0616,true,Rx,0,8,01,C1,70,FF,FF,FF,FF,FF,
171030621,15FD0816,true,Rx,0,8,01,01,04,C3,AA,FF,FF,FF,
171031298,15FD0716,true,Rx,0,8,01,C4,27,AB,FF,7F,FF,FF,
171042008,15FD0616,true,Rx,0,8,01,C1,70,FF,FF,FF,FF,FF,
173531563,15FD0816,true,Rx,0,8,01,01,04,8B,AB,FF,FF,FF,
173532163,15FD0716,true,Rx,0,8,01,C4,EF,AB,FF,7F,FF,FF,
173542869,15FD0616,true,Rx,0,8,01,C1,70,FF,FF,FF,FF,FF,
176032467,15FD0816,true,Rx,0,8,01,01,04,53,AC,FF,FF,FF,
176033011,15FD0716,true,Rx,0,8,01,C4,B7,AC,FF,7F,FF,FF,
176043789,15FD0616,true,Rx,0,8,01,C1,70,FF,FF,FF,FF,FF,
178533377,15FD0816,true,Rx,0,8,01,01,04,1B,AD,FF,FF,FF,
178533933,15FD0716,true,Rx,0,8,01,C4,7F,AD,FF,7F,FF,FF,
178544724,15FD0616,true,Rx,0,8,01,C1,70,FF,FF,FF,FF,FF,
181034254,15FD0816,true,Rx,0,8,01,01,04,E3,AD,FF,FF,FF,
181034847,15FD0716,true,Rx,0,8,01,C4,47,AE,FF,7F,FF,FF,
181045570,15FD0616,true,Rx,0,8,01,C1,70,FF,FF,FF,FF,FF,
183535208,15FD0816,true,Rx,0,8,01,01,04,AB,AE,FF,FF,FF,
183535719,15FD0716,true,Rx,0,8,01,C4,0F,AF,FF,7F,FF,FF,
183546541,15FD0616,true,Rx,0,8,01,C1,70,FF,FF,FF,FF,FF,
183571133,1DF01116,true,Rx,0,8,60,EA,00,FF,FF,FF,FF,FF,
186036102,15FD0816,true,Rx,0,8,01,01,04,73,AF,FF,FF,FF,
186036632,15FD0716,true,Rx,0,8,01,C4,D7,AF,FF,7F,FF,FF,
186047417,15FD0616,true,Rx,0,8,01,C1,70,FF,FF,FF,FF,FF,
188537028,15FD0816,true,Rx,0,8,01,01,04,3B,B0,FF,FF,FF,
188537555,15FD0716,true,Rx,0,8,01,C4,9F,B0,FF,7F,FF,FF,
188548368,15FD0616,true,Rx,0,8,01,C1,70,FF,FF,FF,FF,FF,
191037903,15FD0816,true,Rx,0,8,01,01,04,03,B1,FF,FF,FF,
191038503,15FD0716,true,Rx,0,8,01,C4,67,B1,FF,7F,FF,FF,
191049219,15FD0616,true,Rx,0,8,01,C1,70,FF,FF,FF,FF,FF,
193538805,15FD0816,true,Rx,0,8,01,01,04,CB,B1,FF,FF,FF,
193539394,15FD0716,true,Rx,0,8,01,C4,2F,B2,FF,7F,FF,FF,
193550107,15FD0616,true,Rx,0,8,01,C1,70,FF,FF,FF,FF,FF,
196039678,15FD0816,true,Rx,0,8,01,01,04,93,B2,FF,FF,FF,
196040232,15FD0716,true,Rx,0,8,01,C4,F7,B2,FF,7F,FF,FF,
196051019,15FD0616,true,Rx,0,8,01,C1,70,FF,FF,FF,FF,FF,
198540645,15FD0816,true,Rx,0,8,01,01,04,5B,B3,FF,FF,FF,
198541201,15FD0716,true,Rx,0,8,01,C4,BF,B3,FF,7F,FF,FF,
198551948,15FD0616,true,Rx,0,8,01,C1,70,FF,FF,FF,FF,FF,
201041565,15FD0816,true,Rx,0,8,01,01,04,23,B4,FF,FF,FF,
201042081,15FD0716,true,Rx,0,8,01,C4,87,B4,FF,7F,FF,FF,
201052822,15FD0616,true,Rx,0,8,01,C1,70,FF,FF,FF,FF,FF,
203542422,15FD0816,true,Rx,0,8,01,01,04,EB,B4,FF,FF,FF,
203543005,15FD0716,true,Rx,0,8,01,C4,4F,B5,FF,7F,FF,FF,
203553740,15FD0616,true,Rx,0,8,01,C1,70,FF,FF,FF,FF,FF,
206043368,15FD0816,true,Rx,0,8,01,01,04,B3,B5,FF,FF,FF,
206043891,15FD0716,true,Rx,0,8,01,C4,17,B6,FF,7F,FF,FF,
206054657,15FD0616,true,Rx,0,8,01,C1,70,FF,FF,FF,FF,FF,
208544221,15FD0816,true,Rx,0,8,01,01,04,7B,B6,FF,FF,FF,
208544763,15FD0716,true,Rx,0,8,01,C4,DF,B6,FF,7F,FF,FF,
208555590,15FD0616,true,Rx,0,8,01,C1,70,FF,FF,FF,FF,FF,
211045098,15FD0816,true,Rx,0,8,01,01,04,43,B7,FF,FF,FF,
211045690,15FD0716,true,Rx,0,8,01,C4,A7,B7,FF,7F,FF,FF,
211056487,15FD0616,true,Rx,0,8,01,C1,70,FF,FF,FF,FF,FF,
213546080,15FD0816,true,Rx,0,8,01,01,04,0B,B8,FF,FF,FF,
213546596,15FD0716,true,Rx,0,8,01,C4,6F,B8,FF,7F,FF,FF,
213557360,15FD0616,true,Rx,0,8,01,C1,70,FF,FF,FF,FF,FF,
216046949,15FD0816,true,Rx,0,8,01,01,04,D3,B8,FF,FF,FF,
216047543,15FD0716,true,Rx,0,8,01,C4,37,B9,FF,7F,FF,FF,
216058306,15FD0616,true,Rx,0,8,01,C1,70,FF,FF,FF,FF,FF,
218547815,15FD0816,true,Rx,0,8,01,01,04,9B,B9,FF,FF,FF,
218548433,15FD0716,true,Rx,0,8,01,C4,FF,B9,FF,7F,FF,FF,
218559169,15FD0616,true,Rx,0,8,01,C1,70,FF,FF,FF,FF,FF,
221048727,15FD0816,true,Rx,0,8,01,01,04,63,BA,FF,FF,FF,
221049318,15FD0716,true,Rx,0,8,01,C4,C7,BA,FF,7F,FF,FF,
221060067,15FD0616,true,Rx,0,8,01,C1,70,FF,FF,FF,FF,FF,
223549675,15FD0816,true,Rx,0,8,01,01,04,2B,BB,FF,FF,FF,
223550215,15FD0716,true,Rx,0,8,01,C4,8F,BB,FF,7F,FF,FF,
223560987,15FD0616,true,Rx,0,8,01,C1,70,FF,FF,FF,FF,FF,
226050560,15FD0816,true,Rx,0,8,01,01,04,F3,BB,FF,FF,FF,
226051169,15FD0716,true,Rx,0,8,01,C4,57,BC,FF,7F,FF,FF,
226061902,15FD0616,true,Rx,0,8,01,C1,70,FF,FF,FF,FF,FF,
228551502,15FD0816,true,Rx,0,8,01,01,04,BB,BC,FF,FF,FF,
228552008,15FD0716,true,Rx,0,8,01,C4,1F,BD,FF,7F,FF,FF,
228562767,15FD0616,true,Rx,0,8,01,C1,70,FF,FF,FF,FF,FF,
231052400,15FD0816,true,Rx,0,8,01,01,04,83,BD,FF,FF,FF,
231052921,15FD0716,true,Rx,0,8,01,C4,E7,BD,FF,7F,FF,FF,
231063732,15FD0616,true,Rx,0,8,01,C1,70,FF,FF,FF,FF,FF,
233553309,15FD0816,true,Rx,0,8,01,01,04,4B,BE,FF,FF,FF,
233553877,15FD0716,true,Rx,0,8,01,C4,AF,BE,FF,7F,FF,FF,
233564652,15FD0616,true,Rx,0,8,01,C1,70,FF,FF,FF,FF,FF,
236054181,15FD0816,true,Rx,0,8,01,01,04,13,BF,FF,FF,FF,
236054770,15FD0716,true,Rx,0,8,01,C4,77,BF,FF,7F,FF,FF,
236065521,15FD0616,true,Rx,0,8,01,C1,70,FF,FF,FF,FF,FF,
238555103,15FD0816,true,Rx,0,8,01,01,04,DB,BF,FF,FF,FF,
238555738,15FD0716,true,Rx,0,8,01,C4,3F,C0,FF,7F,FF,FF,
238566409,15FD0616,true,Rx,0,8,01,C1,70,FF,FF,FF,FF,FF,
241055996,15FD0816,true,Rx,0,8,01,01,04,A3,C0,FF,FF,FF,
241056672,15FD0716,true,Rx,0,8,01,C4,07,C1,FF,7F,FF,FF,
241067346,15FD0616,true,Rx,0,8,01,C1,70,FF,FF,FF,FF,FF,
243556927,15FD0816,true,Rx,0,8,01,01,04,6B,C1,FF,FF,FF,
243557437,15FD0716,true,Rx,0,8,01,C4,CF,C1,FF,7F,FF,FF,
243568220,15FD0616,true,Rx,0,8,01,C1,70,FF,FF,FF,FF,FF,
243568875,1DF01116,true,Rx,0,8,60,EA,00,FF,FF,FF,FF,FF,
246057829,15FD0816,true,Rx,0,8,01,01,04,33,C2,FF,FF,FF,
246058335,15FD0716,true,Rx,0,8,01,C4,97,C2,FF,7F,FF,FF,
246069150,15FD0616,true,Rx,0,8,01,C1,70,FF,FF,FF,FF,FF,
248558759,15FD0816,true,Rx,0,8,01,01,04,FB,C2,FF,FF,FF,
248559250,15FD0716,true,Rx,0,8,01,C4,5F,C3,FF,7F,FF,FF,
248570018,15FD0616,true,Rx,0,8,01,C1,70,FF,FF,FF,FF,FF,
251059710,15FD0816,true,Rx,0,8,01,01,04,C3,C3,FF,FF,FF,
251060174,15FD0716,true,Rx,0,8,01,C4,27,C4,FF,7F,FF,FF,
251070938,15FD0616,true,Rx,0,8,01,C1,70,FF,FF,FF,FF,FF,
253560500,15FD0816,true,Rx,0,8,01,01,04,8B,C4,FF,FF,FF,
253561075,15FD0716,true,Rx,0,8,01,C4,EF,C4,FF,7F,FF,FF,
253571906,15FD0616,true,Rx,0,8,01,C1,70,FF,FF,FF,FF,FF,
256061445,15FD0816,true,Rx,0,8,01,01,04,53,C5,FF,FF,FF,
256061966,15FD0716,true,Rx,0,8,01,C4,B7,C5,FF,7F,FF,FF,
256072815,15FD0616,true,Rx,0,8,01,C1,70,FF,FF,FF,FF,FF,
258562340,15FD0816,true,Rx,0,8,01,01,04,1B,C6,FF,FF,FF,
258562915,15FD0716,true,Rx,0,8,01,C4,7F,C6,FF,7F,FF,FF,
258573720,15FD0616,true,Rx,0,8,01,C1,70,FF,FF,FF,FF,FF,
261063265,15FD0816,true,Rx,0,8,01,01,04,E3,C6,FF,FF,FF,
261063847,15FD0716,true,Rx,0,8,01,C4,47,C7,FF,7F,FF,FF,
261074572,15FD0616,true,Rx,0,8,01,C1,70,FF,FF,FF,FF,FF,
263564136,15FD0816,true,Rx,0,8,01,01,04,AB,C7,FF,FF,FF,
263564756,15FD0716,true,Rx,0,8,01,C4,0F,C8,FF,7F,FF,FF,
263575473,15FD0616,true,Rx,0,8,01,C1,70,FF,FF,FF,FF,FF,
266065051,15FD0816,true,Rx,0,8,01,01,04,73,C8,FF,FF,FF,
266065659,15FD0716,true,Rx,0,8,01,C4,D7,C8,FF,7F,FF,FF,
266076383,15FD0616,true,Rx,0,8,01,C1,70,FF,FF,FF,FF,FF,
268565952,15FD0816,true,Rx,0,8,01,01,04,3B,C9,FF,FF,FF,
268566543,15FD0716,true,Rx,0,8,01,C4,9F,C9,FF,7F,FF,FF,
268577268,15FD0616,true,Rx,0,8,01,C1,70,FF,FF,FF,FF,FF,
271066890,15FD0816,true,Rx,0,8,01,01,04,03,CA,FF,FF,FF,
271067419,15FD0716,true,Rx,0,8,01,C4,67,CA,FF,7F,FF,FF,
271078189,15FD0616,true,Rx,0,8,01,C1,70,FF,FF,FF,FF,FF,
273567717,15FD0816,true,Rx,0,8,01,01,04,CB,CA,FF,FF,FF,
273568294,15FD0716,true,Rx,0,8,01,C4,2F,CB,FF,7F,FF,FF,
273579103,15FD0616,true,Rx,0,8,01,C1,70,FF,FF,FF,FF,FF,
276068642,15FD0816,true,Rx,0,8,01,01,04,93,CB,FF,FF,FF,
276069193,15FD0716,true,Rx,0,8,01,C4,F7,CB,FF,7F,FF,FF,
276080016,15FD0616,true,Rx,0,8,01,C1,70,FF,FF,FF,FF,FF,
278569590,15FD0816,true,Rx,0,8,01,01,04,5B,CC,FF,FF,FF,
278570129,15FD0716,true,Rx,0,8,01,C4,BF,CC,FF,7F,FF,FF,
278580942,15FD0616,true,Rx,0,8,01,C1,70,FF,FF,FF,FF,FF,
281070498,15FD0816,true,Rx,0,8,01,01,04,23,CD,FF,FF,FF,
281071034,15FD0716,true,Rx,0,8,01,C4,87,CD,FF,7F,FF,FF,
281081839,15FD0616,true,Rx,0,8,01,C1,70,FF,FF,FF,FF,FF,
283571386,15FD0816,true,Rx,0,8,01,01,04,EB,CD,FF,FF,FF,
283571984,15FD0716,true,Rx,0,8,01,C4,4F,CE,FF,7F,FF,FF,
283582766,15FD0616,true,Rx,0,8,01,C1,70,FF,FF,FF,FF,FF,
286072284,15FD0816,true,Rx,0,8,01,01,04,B3,6A,FF,FF,FF,
286072911,15FD0716,true,Rx,0,8,01,C4,17,6B,FF,7F,FF,FF,
286083606,15FD0616,true,Rx,0,8,01,C1,70,FF,FF,FF,FF,FF,
288573206,15FD0816,true,Rx,0,8,01,01,04,7B,6B,FF,FF,FF,
288573758,15FD0716,true,Rx,0,8,01,C4,DF,6B,FF,7F,FF,FF,
288584513,15FD0616,true,Rx,0,8,01,C1,70,FF,FF,FF,FF,FF,
291074084,15FD0816,true,Rx,0,8,01,01,04,43,6C,FF,FF,FF,
291074660,15FD0716,true,Rx,0,8,01,C4,A7,6C,FF,7F,FF,FF,
291085472,15FD0616,true,Rx,0,8,01,C1,70,FF,FF,FF,FF,FF,
293575021,15FD0816,true,Rx,0,8,01,01,04,0B,6D,FF,FF,FF,
293575561,15FD0716,true,Rx,0,8,01,C4,6F,6D,FF,7F,FF,FF,
293586331,15FD0616,true,Rx,0,8,01,C1,70,FF,FF,FF,FF,FF,
296075968,15FD0816,true,Rx,0,8,01,01,04,D3,6D,FF,FF,FF,
296076462,15FD0716,true,Rx,0,8,01,C4,37,6E,FF,7F,FF,FF,
296087221,15FD0616,true,Rx,0,8,01,C1,70,FF,FF,FF,FF,FF,
298576814,15FD0816,true,Rx,0,8,01,01,04,9B,6E,FF,FF,FF,
298577354,15FD0716,true,Rx,0,8,01,C4,FF,6E,FF,7F,FF,FF,
298588169,15FD0616,true,Rx,0,8,01,C1,70,FF,FF,FF,FF,FF,
301077745,15FD0816,true,Rx,0,8,01,01,04,63,6F,FF,FF,FF,
301078296,15FD0716,true,Rx,0,8,01,C4,C7,6F,FF,7F,FF,FF,
301089072,15FD0616,true,Rx,0,8,01,C1,70,FF,FF,FF,FF,FF,
303566662,1DF01116,true,Rx,0,8,60,EA,00,FF,FF,FF,FF,FF,
303578596,15FD0816,true,Rx,0,8,01,01,04,2B,70,FF,FF,FF,
303579155,15FD0716,true,Rx,0,8,01,C4,8F,70,FF,7F,FF,FF,
303589948,15FD0616,true,Rx,0,8,01,C1,70,FF,FF,FF,FF,FF,
306079509,15FD0816,true,Rx,0,8,01,01,04,F3,70,FF,FF,FF,
306080181,15FD0716,true,Rx,0,8,01,C4,57,71,FF,7F,FF,FF,
306090882,15FD0616,true,Rx,0,8,01,C1,70,FF,FF,FF,FF,FF,
308580470,15FD0816,true,Rx,0,8,01,01,04,BB,71,FF,FF,FF,
308581017,15FD0716,true,Rx,0,8,01,C4,1F,72,FF,7F,FF,FF,
308591766,15FD0616,true,Rx,0,8,01,C1,70,FF,FF,FF,FF,FF,
311081375,15FD0816,true,Rx,0,8,01,01,04,83,72,FF,FF,FF,
311081925,15FD0716,true,Rx,0,8,01,C4,E7,72,FF,7F,FF,FF,
311092679,15FD0616,true,Rx,0,8,01,C1,70,FF,FF,FF,FF,FF,
313582250,15FD0816,true,Rx,0,8,01,01,04,4B,73,FF,FF,FF,
313582821,15FD0716,true,Rx,0,8,01,C4,AF,73,FF,7F,FF,FF,
313593643,15FD0616,true,Rx,0,8,01,C1,70,FF,FF,FF,FF,FF,
316083180,15FD0816,true,Rx,0,8,01,01,04,13,74,FF,FF,FF,
316083762,15FD0716,true,Rx,0,8,01,C4,77,74,FF,7F,FF,FF,
316094497,15FD0616,true,Rx,0,8,01,C1,70,FF,FF,FF,FF,FF,
318584110,15FD0816,true,Rx,0,8,01,01,04,DB,74,FF,FF,FF,
318584643,15FD0716,true,Rx,0,8,01,C4,3F,75,FF,7F,FF,FF,
318595394,15FD0616,true,Rx,0,8,01,C1,70,FF,FF,FF,FF,FF,
321084978,15FD0816,true,Rx,0,8,01,01,04,A3,75,FF,FF,FF,
321085531,15FD0716,true,Rx,0,8,01,C4,07,76,FF,7F,FF,FF,
321096333,15FD0616,true,Rx,0,8,01,C1,70,FF,FF,FF,FF,FF,
323585893,15FD0816,true,Rx,0,8,01,01,04,6B,76,FF,FF,FF,
323586455,15FD0716,true,Rx,0,8,01,C4,CF,76,FF,7F,FF,FF,
323597222,15FD0616,true,Rx,0,8,01,C1,70,FF,FF,FF,FF,FF,
326086760,15FD0816,true,Rx,0,8,01,01,04,33,77,FF,FF,FF,
326087325,15FD0716,true,Rx,0,8,01,C4,97,77,FF,7F,FF,FF,
326098162,15FD0616,true,Rx,0,8,01,C1,70,FF,FF,FF,FF,FF,
328587683,15FD0816,true,Rx,0,8,01,01,04,FB,77,FF,FF,FF,
328588303,15FD0716,true,Rx,0,8,01,C4,5F,78,FF,7F,FF,FF,
328599013,15FD0616,true,Rx,0,8,01,C1,70,FF,FF,FF,FF,FF,
331088559,15FD0816,true,Rx,0,8,01,01,04,C3,78,FF,FF,FF,
331089199,15FD0716,true,Rx,0,8,01,C4,27,79,FF,7F,FF,FF,
331099967,15FD0616,true,Rx,0,8,01,C1,70,FF,FF,FF,FF,FF,
333589473,15FD0816,true,Rx,0,8,01,01,04,8B,79,FF,FF,FF,
333590157,15FD0716,true,Rx,0,8,01,C4,EF,79,FF,7F,FF,FF,
333600835,15FD0616,true,Rx,0,8,01,C1,70,FF,FF,FF,FF,FF,
336090379,15FD0816,true,Rx,0,8,01,01,04,53,7A,FF,FF,FF,
336090959,15FD0716,true,Rx,0,8,01,C4,B7,7A,FF,7F,FF,FF,
336101755,15FD0616,true,Rx,0,8,01,C1,70,FF,FF,FF,FF,FF,
338591382,15FD0816,true,Rx,0,8,01,01,04,1B,7B,FF,FF,FF,
338591863,15FD0716,true,Rx,0,8,01,C4,7F,7B,FF,7F,FF,FF,
338602618,15FD0616,true,Rx,0,8,01,C1,70,FF,FF,FF,FF,FF,
341092238,15FD0816,true,Rx,0,8,01,01,04,E3,7B,FF,FF,FF,
341092778,15FD0716,true,Rx,0,8,01,C4,47,7C,FF,7F,FF,FF,
341103538,15FD0616,true,Rx,0,8,01,C1,70,FF,FF,FF,FF,FF,
343593196,15FD0816,true,Rx,0,8,01,01,04,AB,7C,FF,FF,FF,
343593699,15FD0716,true,Rx,0,8,01,C4,0F,7D,FF,7F,FF,FF,
343604458,15FD0616,true,Rx,0,8,01,C1,70,FF,FF,FF,FF,FF,
346094031,15FD0816,true,Rx,0,8,01,01,04,73,7D,FF,FF,FF,
346094573,15FD0716,true,Rx,0,8,01,C4,D7,7D,FF,7F,FF,FF,
346105394,15FD0616,true,Rx,0,8,01,C1,70,FF,FF,FF,FF,FF,
348594953,15FD0816,true,Rx,0,8,01,01,04,3B,7E,FF,FF,FF,
348595545,15FD0716,true,Rx,0,8,01,C4,9F,7E,FF,7F,FF,FF,
348606356,15FD0616,true,Rx,0,8,01,C1,70,FF,FF,FF,FF,FF,
351095841,15FD0816,true,Rx,0,8,01,01,04,03,7F,FF,FF,FF,
351096407,15FD0716,true,Rx,0,8,01,C4,67,7F,FF,7F,FF,FF,
351107201,15FD0616,true,Rx,0,8,01,C1,70,FF,FF,FF,FF,FF,
353596726,15FD0816,true,Rx,0,8,01,01,04,CB,7F,FF,FF,FF,
353597345,15FD0716,true,Rx,0,8,01,C4,2F,80,FF,7F,FF,FF,
353608054,15FD0616,true,Rx,0,8,01,C1,70,FF,FF,FF,FF,FF,
356097659,15FD0816,true,Rx,0,8,01,01,04,93,80,FF,FF,FF,
356098293,15FD0716,true,Rx,0,8,01,C4,F7,80,FF,7F,FF,FF,
356109014,15FD0616,true,Rx,0,8,01,C1,70,FF,FF,FF,FF,FF,
358598595,15FD0816,true,Rx,0,8,01,01,04,5B,81,FF,FF,FF,
358599121,15FD0716,true,Rx,0,8,01,C4,BF,81,FF,7F,FF,FF,
358609921,15FD0616,true,Rx,0,8,01,C1,70,FF,FF,FF,FF,FF,
361099472,15FD0816,true,Rx,0,8,01,01,04,23,82,FF,FF,FF,
361100033,15FD0716,true,Rx,0,8,01,C4,87,82,FF,7F,FF,FF,
361110767,15FD0616,true,Rx,0,8,01,C1,70,FF,FF,FF,FF,FF,
363564396,1DF01116,true,Rx,0,8,60,EA,00,FF,FF,FF,FF,FF,
363600396,15FD0816,true,Rx,0,8,01,01,04,EB,82,FF,FF,FF,
363600937,15FD0716,true,Rx,0,8,01,C4,4F,83,FF,7F,FF,FF,
363611705,15FD0616,true,Rx,0,8,01,C1,70,FF,FF,FF,FF,FF,
366101287,15FD0816,true,Rx,0,8,01,01,04,B3,83,FF,FF,FF,
366101818,15FD0716,true,Rx,0,8,01,C4,17,84,FF,7F,FF,FF,
366112595,15FD0616,true,Rx,0,8,01,C1,70,FF,FF,FF,FF,FF,
368602168,15FD0816,true,Rx,0,8,01,01,04,7B,84,FF,FF,FF,
368602734,15FD0716,true,Rx,0,8,01,C4,DF,84,FF,7F,FF,FF,
368613518,15FD0616,true,Rx,0,8,01,C1,70,FF,FF,FF,FF,FF,
371103073,15FD0816,true,Rx,0,8,01,01,04,43,85,FF,FF,FF,
371103657,15FD0716,true,Rx,0,8,01,C4,A7,85,FF,7F,FF,FF,
371114443,15FD0616,true,Rx,0,8,01,C1,70,FF,FF,FF,FF,FF,
373604003,15FD0816,true,Rx,0,8,01,01,04,0B,86,FF,FF,FF,
373604548,15FD0716,true,Rx,0,8,01,C4,6F,86,FF,7F,FF,FF,
373615333,15FD0616,true,Rx,0,8,01,C1,70,FF,FF,FF,FF,FF,
376104935,15FD0816,true,Rx,0,8,01,01,04,D3,86,FF,FF,FF,
376105486,15FD0716,true,Rx,0,8,01,C4,37,87,FF,7F,FF,FF,
376116261,15FD0616,true,Rx,0,8,01,C1,70,FF,FF,FF,FF,FF,
378605808,15FD0816,true,Rx,0,8,01,01,04,9B,87,FF,FF,FF,
378606386,15FD0716,true,Rx,0,8,01,C4,FF,87,FF,7F,FF,FF,
378617182,15FD0616,true,Rx,0,8,01,C1,70,FF,FF,FF,FF,FF,
381106662,15FD0816,true,Rx,0,8,01,01,04,63,88,FF,FF,FF,
381107259,15FD0716,true,Rx,0,8,01,C4,C7,88,FF,7F,FF,FF,
381118053,15FD0616,true,Rx,0,8,01,C1,70,FF,FF,FF,FF,FF,
383607586,15FD0816,true,Rx,0,8,01,01,04,2B,89,FF,FF,FF,
383608179,15FD0716,true,Rx,0,8,01,C4,8F,89,FF,7F,FF,FF,
383618928,15FD0616,true,Rx,0,8,01,C1,70,FF,FF,FF,FF,FF,
386108527,15FD0816,true,Rx,0,8,01,01,04,F3,89,FF,FF,FF,
386109076,15FD0716,true,Rx,0,8,01,C4,57,8A,FF,7F,FF,FF,
386119838,15FD0616,true,Rx,0,8,01,C1,70,FF,FF,FF,FF,FF,
388609415,15FD0816,true,Rx,0,8,01,01,04,BB,8A,FF,FF,FF,
388609980,15FD0716,true,Rx,0,8,01,C4,1F,8B,FF,7F,FF,FF,
388620774,15FD0616,true,Rx,0,8,01,C1,70,FF,FF,FF,FF,FF,
391110297,15FD0816,true,Rx,0,8,01,01,04,83,8B,FF,FF,FF,
391110864,15FD0716,true,Rx,0,8,01,C4,E7,8B,FF,7F,FF,FF,
391121649,15FD0616,true,Rx,0,8,01,C1,70,FF,FF,FF,FF,FF,
393611219,15FD0816,true,Rx,0,8,01,01,04,4B,8C,FF,FF,FF,
393611793,15FD0716,true,Rx,0,8,01,C4,AF,8C,FF,7F,FF,FF,
393622612,15FD0616,true,Rx,0,8,01,C1,70,FF,FF,FF,FF,FF,
396112147,15FD0816,true,Rx,0,8,01,01,04,13,8D,FF,FF,FF,
396112712,15FD0716,true,Rx,0,8,01,C4,77,8D,FF,7F,FF,FF,
396123523,15FD0616,true,Rx,0,8,01,C1,70,FF,FF,FF,FF,FF,
398613041,15FD0816,true,Rx,0,8,01,01,04,DB,8D,FF,FF,FF,
398613659,15FD0716,true,Rx,0,8,01,C4,3F,8E,FF,7F,FF,FF,
398624385,15FD0616,true,Rx,0,8,01,C1,70,FF,FF,FF,FF,FF,
401113930,15FD0816,true,Rx,0,8,01,01,04,A3,8E,FF,FF,FF,
401114601,15FD0716,true,Rx,0,8,01,C4,07,8F,FF,7F,FF,FF,
401125308,15FD0616,true,Rx,0,8,01,C1,70,FF,FF,FF,FF,FF,
403614876,15FD0816,true,Rx,0,8,01,01,04,6B,8F,FF,FF,FF,
403615534,15FD0716,true,Rx,0,8,01,C4,CF,8F,FF,7F,FF,FF,
403626209,15FD0616,true,Rx,0,8,01,C1,70,FF,FF,FF,FF,FF,
406115803,15FD0816,true,Rx,0,8,01,01,04,33,90,FF,FF,FF,
406116364,15FD0716,true,Rx,0,8,01,C4,97,90,FF,7F,FF,FF,
406127109,15FD0616,true,Rx,0,8,01,C1,70,FF,FF,FF,FF,FF,
408616699,15FD0816,true,Rx,0,8,01,01,04,FB,90,FF,FF,FF,
408617284,15FD0716,true,Rx,0,8,01,C4,5F,91,FF,7F,FF,FF,
408627975,15FD0616,true,Rx,0,8,01,C1,70,FF,FF,FF,FF,FF,
411117603,15FD0816,true,Rx,0,8,01,01,04,C3,91,FF,FF,FF,
411118135,15FD0716,true,Rx,0,8,01,C4,27,92,FF,7F,FF,FF,
411128893,15FD0616,true,Rx,0,8,01,C1,70,FF,FF,FF,FF,FF,
413618467,15FD0816,true,Rx,0,8,01,01,04,8B,92,FF,FF,FF,
413619035,15FD0716,true,Rx,0,8,01,C4,EF,92,FF,7F,FF,FF,
413629821,15FD0616,true,Rx,0,8,01,C1,70,FF,FF,FF,FF,FF,
416119378,15FD0816,true,Rx,0,8,01,01,04,53,93,FF,FF,FF,
416119907,15FD0716,true,Rx,0,8,01,C4,B7,93,FF,7F,FF,FF,
416130733,15FD0616,true,Rx,0,8,01,C1,70,FF,FF,FF,FF,FF,
418620273,15FD0816,true,Rx,0,8,01,01,04,1B,94,FF,FF,FF,
418620835,15FD0716,true,Rx,0,8,01,C4,7F,94,FF,7F,FF,FF,
418631669,15FD0616,true,Rx,0,8,01,C1,70,FF,FF,FF,FF,FF,
421121195,15FD0816,true,Rx,0,8,01,01,04,E3,94,FF,FF,FF,
421121801,15FD0716,true,Rx,0,8,01,C4,47,95,FF,7F,FF,FF,
421132549,15FD0616,true,Rx,0,8,01,C1,70,FF,FF,FF,FF,FF,
423562150,1DF01116,true,Rx,0,8,60,EA,00,FF,FF,FF,FF,FF,
423622062,15FD0816,true,Rx,0,8,01,01,04,AB,95,FF,FF,FF,
423622687,15FD0716,true,Rx,0,8,01,C4,0F,96,FF,7F,FF,FF,
423633433,15FD0616,true,Rx,0,8,01,C1,70,FF,FF,FF,FF,FF,
426122970,15FD0816,true,Rx,0,8,01,01,04,73,96,FF,FF,FF,
426123644,15FD0716,true,Rx,0,8,01,C4,D7,96,FF,7F,FF,FF,
426134389,15FD0616,true,Rx,0,8,01,C1,70,FF,FF,FF,FF,FF,
428623893,15FD0816,true,Rx,0,8,01,01,04,3B,97,FF,FF,FF,
428624442,15FD0716,true,Rx,0,8,01,C4,9F,97,FF,7F,FF,FF,
428635228,15FD0616,true,Rx,0,8,01,C1,70,FF,FF,FF,FF,FF,
431124863,15FD0816,true,Rx,0,8,01,01,04,03,98,FF,FF,FF,
431125415,15FD0716,true,Rx,0,8,01,C4,67,98,FF,7F,FF,FF,
431136159,15FD0616,true,Rx,0,8,01,C1,70,FF,FF,FF,FF,FF,
433625767,15FD0816,true,Rx,0,8,01,01,04,CB,98,FF,FF,FF,
433626319,15FD0716,true,Rx,0,8,01,C4,2F,99,FF,7F,FF,FF,
433637077,15FD0616,true,Rx,0,8,01,C1,70,FF,FF,FF,FF,FF,
436126686,15FD0816,true,Rx,0,8,01,01,04,93,99,FF,FF,FF,
436127162,15FD0716,true,Rx,0,8,01,C4,F7,99,FF,7F,FF,FF,
436137946,15FD0616,true,Rx,0,8,01,C1,70,FF,FF,FF,FF,FF,
438627541,15FD0816,true,Rx,0,8,01,01,04,5B,9A,FF,FF,FF,
438628087,15FD0716,true,Rx,0,8,01,C4,BF,9A,FF,7F,FF,FF,
438638914,15FD0616,true,Rx,0,8,01,C1,70,FF,FF,FF,FF,FF,
441128436,15FD0816,true,Rx,0,8,01,01,04,23,9B,FF,FF,FF,
441129034,15FD0716,true,Rx,0,8,01,C4,87,9B,FF,7F,FF,FF,
441139802,15FD0616,true,Rx,0,8,01,C1,70,FF,FF,FF,FF,FF,
443629316,15FD0816,true,Rx,0,8,01,01,04,EB,9B,FF,FF,FF,
443629926,15FD0716,true,Rx,0,8,01,C4,4F,9C,FF,7F,FF,FF,
443640737,15FD0616,true,Rx,0,8,01,C1,70,FF,FF,FF,FF,FF,
446130241,15FD0816,true,Rx,0,8,01,01,04,B3,9C,FF,FF,FF,
446130879,15FD0716,true,Rx,0,8,01,C4,17,9D,FF,7F,FF,FF,
446141597,15FD0616,true,Rx,0,8,01,C1,70,FF,FF,FF,FF,FF,
448631199,15FD0816,true,Rx,0,8,01,01,04,7B,9D,FF,FF,FF,
